
**** 06/09/25 23:45:32 ********* PSpice 9.2 (Mar 2000) ******** ID# 1 ********

 ** Profile: "SCHEMATIC1-s1"  [ c:\users\alimi\desktop\elec project\file1\ep-schematic1-s1.sim ] 


 ****     CIRCUIT DESCRIPTION


******************************************************************************




** Creating circuit file "ep-schematic1-s1.sim.cir" 
** WARNING: THIS AUTOMATICALLY GENERATED FILE MAY BE OVERWRITTEN BY SUBSEQUENT SIMULATIONS

*Libraries: 
* Local Libraries :
* From [PSPICE NETLIST] section of C:\Program Files\Orcad\PSpice\PSpice.ini file:
.lib "nom.lib" 

*Analysis directives: 
.AC DEC 1000 50 100meg
.PROBE V(*) I(*) W(*) D(*) NOISE(*) 
.INC ".\ep-SCHEMATIC1.net" 



**** INCLUDING ep-SCHEMATIC1.net ****
* source EP
R_R6         0 OUT  6.75  
R_R3         N01612 N01610  1k  
R_R4         N01079 N01258  0.5k  
V_V2         IN 0 DC 0Vdc AC 20mVac 
Q_Q1         N01612 N02650 N01258 BC368 
R_R5         0 N01079  0.5k  
R_R2         N02650 N00897  326594  
V_V3         N00897 0 10Vdc
R_R1         0 N02650  360k  
C_C3         IN N02650  1u  
V_V4         N01610 0 10Vdc
C_C4         N01079 OUT  1u  

**** RESUMING ep-schematic1-s1.sim.cir ****
.END

**** 06/09/25 23:45:32 ********* PSpice 9.2 (Mar 2000) ******** ID# 1 ********

 ** Profile: "SCHEMATIC1-s1"  [ c:\users\alimi\desktop\elec project\file1\ep-schematic1-s1.sim ] 


 ****     BJT MODEL PARAMETERS


******************************************************************************




               BC368           
               NPN             
          IS   14.060000E-15 
          BF  187.6          
          NF    1            
         VAF  100            
         IKF    4.103        
         ISE  137.200000E-15 
          NE    1.468        
          BR    4.541        
          NR    1            
         IKR    1.701        
         ISC   44.130000E-15 
          NC    1.471        
          NK     .5507       
          RC     .091        
         CJE  156.000000E-12 
         VJE     .5          
         MJE     .3333       
         CJC   52.240000E-12 
         VJC     .5          
         MJC     .3333       
          TF  964.800000E-12 
         XTF    1.001000E+03 
         VTF   10            
         ITF  595.3          
          TR   10.000000E-09 
         XTB    1.5          
          CN    2.42         
           D     .87         


**** 06/09/25 23:45:32 ********* PSpice 9.2 (Mar 2000) ******** ID# 1 ********

 ** Profile: "SCHEMATIC1-s1"  [ c:\users\alimi\desktop\elec project\file1\ep-schematic1-s1.sim ] 


 ****     SMALL SIGNAL BIAS SOLUTION       TEMPERATURE =   27.000 DEG C


******************************************************************************



 NODE   VOLTAGE     NODE   VOLTAGE     NODE   VOLTAGE     NODE   VOLTAGE


(   IN)    0.0000  (  OUT)    0.0000  (N00897)   10.0000 (N01079)     .9926     

(N01258)    1.9852 (N01610)   10.0000 (N01612)    8.0300 (N02650)    2.6477 




    VOLTAGE SOURCE CURRENTS
    NAME         CURRENT

    V_V2         0.000E+00
    V_V3        -2.251E-05
    V_V4        -1.970E-03

    TOTAL POWER DISSIPATION   1.99E-02  WATTS



          JOB CONCLUDED

          TOTAL JOB TIME             .58
