
**** 06/10/25 14:36:48 ********* PSpice 9.2 (Mar 2000) ******** ID# 1 ********

 ** Profile: "SCHEMATIC1-p1"  [ C:\Users\alimi\Desktop\ELEC PROJECT\file1_1\swing-SCHEMATIC1-p1.sim ] 


 ****     CIRCUIT DESCRIPTION


******************************************************************************




** Creating circuit file "swing-SCHEMATIC1-p1.sim.cir" 
** WARNING: THIS AUTOMATICALLY GENERATED FILE MAY BE OVERWRITTEN BY SUBSEQUENT SIMULATIONS

*Libraries: 
* Local Libraries :
* From [PSPICE NETLIST] section of C:\Program Files\Orcad\PSpice\PSpice.ini file:
.lib "nom.lib" 

*Analysis directives: 
.TRAN  0 1000ns 0 
.PROBE V(*) I(*) W(*) D(*) NOISE(*) 
.INC ".\swing-SCHEMATIC1.net" 



**** INCLUDING swing-SCHEMATIC1.net ****
* source SWING
R_R6         0 OUT  6.75  
R_R3         N01612 N01610  1k  
R_R4         OUT N01258  0.5k  
V_V5         IN 0  
+SIN 0 20m 10k 0 0 0
Q_Q1         N01612 IN N01258 BC368 
R_R5         0 OUT  0.5k  
R_R2         IN N00897  326594  
V_V3         N00897 0 10Vdc
R_R1         0 IN  360k  
V_V4         N01610 0 10Vdc

**** RESUMING swing-SCHEMATIC1-p1.sim.cir ****
.END

**** 06/10/25 14:36:48 ********* PSpice 9.2 (Mar 2000) ******** ID# 1 ********

 ** Profile: "SCHEMATIC1-p1"  [ C:\Users\alimi\Desktop\ELEC PROJECT\file1_1\swing-SCHEMATIC1-p1.sim ] 


 ****     BJT MODEL PARAMETERS


******************************************************************************




               BC368           
               NPN             
          IS   14.060000E-15 
          BF  187.6          
          NF    1            
         VAF  100            
         IKF    4.103        
         ISE  137.200000E-15 
          NE    1.468        
          BR    4.541        
          NR    1            
         IKR    1.701        
         ISC   44.130000E-15 
          NC    1.471        
          NK     .5507       
          RC     .091        
         CJE  156.000000E-12 
         VJE     .5          
         MJE     .3333       
         CJC   52.240000E-12 
         VJC     .5          
         MJC     .3333       
          TF  964.800000E-12 
         XTF    1.001000E+03 
         VTF   10            
         ITF  595.3          
          TR   10.000000E-09 
         XTB    1.5          
          CN    2.42         
           D     .87         


**** 06/10/25 14:36:48 ********* PSpice 9.2 (Mar 2000) ******** ID# 1 ********

 ** Profile: "SCHEMATIC1-p1"  [ C:\Users\alimi\Desktop\ELEC PROJECT\file1_1\swing-SCHEMATIC1-p1.sim ] 


 ****     INITIAL TRANSIENT SOLUTION       TEMPERATURE =   27.000 DEG C


******************************************************************************



 NODE   VOLTAGE     NODE   VOLTAGE     NODE   VOLTAGE     NODE   VOLTAGE


(   IN)    0.0000  (  OUT) 73.36E-12  (N00897)   10.0000 (N01258) 5.581E-09     

(N01610)   10.0000 (N01612)   10.0000 




    VOLTAGE SOURCE CURRENTS
    NAME         CURRENT

    V_V5         3.062E-05
    V_V3        -3.062E-05
    V_V4        -1.327E-11

    TOTAL POWER DISSIPATION   3.06E-04  WATTS



          JOB CONCLUDED

          TOTAL JOB TIME             .11
